
T1CA8 000:296 SEGGER J-Link V5.10h Log File (0000ms, 0288ms total)
T1CA8 000:296 DLL Compiled: Jan 21 2016 19:24:29 (0000ms, 0288ms total)
T1CA8 000:296 Logging started @ 2017-02-16 09:55 (0000ms, 0288ms total)
T1CA8 000:296 JLINK_SetWarnOutHandler(...) (0000ms, 0288ms total)
T1CA8 000:296 JLINK_OpenEx(...)
Firmware: J-Link V9 compiled Jul 27 2016 18:00:06
Hardware: V9.40
S/N: 59402184
Feature(s): RDI, GDB, FlashDL, FlashBP, JFlash  returns O.K. (0289ms, 0577ms total)
T1CA8 000:585 JLINK_SetErrorOutHandler(...) (0000ms, 0577ms total)
T1CA8 000:585 JLINK_ExecCommand("ProjectFile = "F:\My-Git\ZKXL-DTQ-STM32 - DEMO-LZLZ\Project\JLinkSettings.ini"", ...)  returns 0x00 (0000ms, 0577ms total)
T1CA8 000:594 JLINK_ExecCommand("Device = STM32F103RB", ...)Device "STM32F103RB" selected.  returns 0x00 (0003ms, 0580ms total)
T1CA8 000:597 JLINK_ExecCommand("DisableConnectionTimeout", ...)  returns 0x01 (0000ms, 0580ms total)
T1CA8 000:597 JLINK_GetHardwareVersion()  returns 0x16F30 (0000ms, 0580ms total)
T1CA8 000:597 JLINK_GetDLLVersion()  returns 51008 (0000ms, 0580ms total)
T1CA8 000:597 JLINK_GetFirmwareString(...) (0000ms, 0580ms total)
T1CA8 000:604 JLINK_GetDLLVersion()  returns 51008 (0000ms, 0580ms total)
T1CA8 000:604 JLINK_GetCompileDateTime() (0000ms, 0580ms total)
T1CA8 000:606 JLINK_GetFirmwareString(...) (0000ms, 0580ms total)
T1CA8 000:609 JLINK_GetHardwareVersion()  returns 0x16F30 (0000ms, 0580ms total)
T1CA8 000:618 JLINK_TIF_Select(JLINKARM_TIF_SWD)  returns 0x00 (0004ms, 0584ms total)
T1CA8 000:622 JLINK_SetSpeed(5000) (0001ms, 0585ms total)
T1CA8 000:623 JLINK_GetId() >0x108 TIF>Found SWD-DP with ID 0x1BA01477 >0x0D TIF> >0x28 TIF> >0x0D TIF> >0x28 TIF> >0x0D TIF> >0x28 TIF> >0x0D TIF> >0x28 TIF> >0x0D TIF> >0x21 TIF> >0x0D TIF> >0x28 TIF> >0x0D TIF> >0x28 TIF> >0x0D TIF> >0x28 TIF> >0x0D TIF> >0x21 TIF> >0x0D TIF> >0x21 TIF> >0x0D TIF> >0x28 TIF> >0x0D TIF> >0x21 TIF> >0x0D TIF> >0x21 TIF> >0x0D TIF> >0x28 TIF> >0x0D TIF> >0x21 TIF> >0x0D TIF> >0x21 TIF> >0x0D TIF> >0x28 TIF> >0x0D TIF> >0x21 TIF> >0x0D TIF> >0x21 TIF> >0x108 TIF>
Found SWD-DP with ID 0x1BA01477 >0x0D TIF> >0x28 TIF> >0x0D TIF> >0x28 TIF> >0x0D TIF> >0x28 TIF> >0x0D TIF> >0x28 TIF> >0x0D TIF> >0x21 TIF> >0x0D TIF> >0x28 TIF> >0x0D TIF> >0x28 TIF> >0x0D TIF> >0x21 TIF> >0x0D TIF> >0x21 TIF> >0x0D TIF> >0x21 TIF> >0x0D TIF> >0x28 TIF> >0x0D TIF> >0x28 TIF> >0x0D TIF> >0x28 TIF> >0x0D TIF> >0x21 TIF> >0x0D TIF> >0x21 TIF> >0x0D TIF> >0x28 TIF> >0x0D TIF> >0x21 TIF> >0x0D TIF> >0x21 TIF>Found Cortex-M3 r1p1, Little endian. -- CPU_ReadMem(4 bytes @ 0xE000EDF0)
 -- CPU_ReadMem(4 bytes @ 0xE0002000)FPUnit: 6 code (BP) slots and 2 literal slots -- CPU_ReadMem(4 bytes @ 0xE000EDFC) -- CPU_ReadMem(4 bytes @ 0xE0001000) -- CPU_WriteMem(4 bytes @ 0xE0001000) -- CPU_ReadMem(4 bytes @ 0xE000ED88) -- CPU_WriteMem(4 bytes @ 0xE000ED88) -- CPU_ReadMem(4 bytes @ 0xE000ED88) -- CPU_WriteMem(4 bytes @ 0xE000ED88)CoreSight components:ROMTbl 0 @ E00FF000 -- CPU_ReadMem(16 bytes @ 0xE00FF000) -- CPU_ReadMem(16 bytes @ 0xE000EFF0) -- CPU_ReadMem(16 bytes @ 0xE000EFE0)
ROMTbl 0 [0]: FFF0F000, CID: B105E00D, PID: 001BB000 SCS -- CPU_ReadMem(16 bytes @ 0xE0001FF0) -- CPU_ReadMem(16 bytes @ 0xE0001FE0)ROMTbl 0 [1]: FFF02000, CID: B105E00D, PID: 001BB002 DWT -- CPU_ReadMem(16 bytes @ 0xE0002FF0) -- CPU_ReadMem(16 bytes @ 0xE0002FE0)ROMTbl 0 [2]: FFF03000, CID: B105E00D, PID: 000BB003 FPB -- CPU_ReadMem(16 bytes @ 0xE0000FF0) -- CPU_ReadMem(16 bytes @ 0xE0000FE0)ROMTbl 0 [3]: FFF01000, CID: B105E00D, PID: 001BB001 ITM -- CPU_ReadMem(16 bytes @ 0xE00FF010)
 -- CPU_ReadMem(16 bytes @ 0xE0040FF0) -- CPU_ReadMem(16 bytes @ 0xE0040FE0)ROMTbl 0 [4]: FFF41000, CID: B105900D, PID: 001BB923 TPIU-Lite >0x0D TIF> >0x21 TIF>  returns 0x1BA01477 (0148ms, 0733ms total)
T1CA8 000:771 JLINK_GetDLLVersion()  returns 51008 (0000ms, 0733ms total)
T1CA8 000:771 JLINK_CORE_GetFound()  returns 0x30000FF (0000ms, 0733ms total)
T1CA8 000:771 JLINK_GetDebugInfo(0x100) -- Value=0xE00FF000  returns 0x00 (0000ms, 0733ms total)
T1CA8 000:774 JLINK_GetDebugInfo(0x100) -- Value=0xE00FF000  returns 0x00 (0000ms, 0733ms total)
T1CA8 000:774 JLINK_GetDebugInfo(0x101) -- Value=0x00000000  returns 0x00 (0000ms, 0733ms total)
T1CA8 000:774 JLINK_ReadMem (0xE0041FF0, 0x0010 Bytes, ...) -- CPU is running -- CPU_ReadMem(16 bytes @ 0xE0041FF0) - Data: 00 00 00 00 00 00 00 00 00 00 00 00 00 00 00 00  returns 0x00 (0001ms, 0734ms total)
T1CA8 000:775 JLINK_GetDebugInfo(0x102) -- Value=0x00000000  returns 0x00 (0000ms, 0734ms total)
T1CA8 000:775 JLINK_GetDebugInfo(0x103) -- Value=0xE0040000  returns 0x00 (0000ms, 0734ms total)
T1CA8 000:775 JLINK_GetDebugInfo(0x104) -- Value=0xE0000000  returns 0x00 (0000ms, 0734ms total)
T1CA8 000:775 JLINK_GetDebugInfo(0x105) -- Value=0xE0001000  returns 0x00 (0000ms, 0734ms total)
T1CA8 000:775 JLINK_GetDebugInfo(0x106) -- Value=0xE0002000  returns 0x00 (0000ms, 0734ms total)
T1CA8 000:775 JLINK_GetDebugInfo(0x107) -- Value=0xE000E000  returns 0x00 (0000ms, 0734ms total)
T1CA8 000:775 JLINK_GetDebugInfo(0x10C) -- Value=0xE000EDF0  returns 0x00 (0000ms, 0734ms total)
T1CA8 000:775 JLINK_ReadMemU32(0xE000ED00, 0x0001 Items, ...) -- CPU is running -- CPU_ReadMem(4 bytes @ 0xE000ED00) - Data: 31 C2 1F 41  returns 0x01 (0001ms, 0735ms total)
T1CA8 000:776 JLINK_SetResetType(JLINKARM_RESET_TYPE_NORMAL)  returns JLINKARM_RESET_TYPE_NORMAL (0000ms, 0735ms total)
T1CA8 000:776 JLINK_Reset() -- CPU is running -- CPU_WriteMem(4 bytes @ 0xE000EDF0) -- CPU is running -- CPU_WriteMem(4 bytes @ 0xE000EDFC) >0x35 TIF> -- CPU is running -- CPU_WriteMem(4 bytes @ 0xE000ED0C) -- CPU is running -- CPU_ReadMem(4 bytes @ 0xE000EDF0) -- CPU is running -- CPU_ReadMem(4 bytes @ 0xE000EDF0) -- CPU is running -- CPU_WriteMem(4 bytes @ 0xE000EDF0) -- CPU is running -- CPU_WriteMem(4 bytes @ 0xE000EDFC) -- CPU is running -- CPU_ReadMem(4 bytes @ 0xE000EDF0)
 -- CPU_WriteMem(4 bytes @ 0xE0002000) -- CPU_ReadMem(4 bytes @ 0xE000EDFC) -- CPU_ReadMem(4 bytes @ 0xE0001000) (0026ms, 0761ms total)
T1CA8 000:802 JLINK_Halt()  returns 0x00 (0000ms, 0761ms total)
T1CA8 000:802 JLINK_IsHalted()  returns TRUE (0000ms, 0761ms total)
T1CA8 000:802 JLINK_ReadMemU32(0xE000EDF0, 0x0001 Items, ...) -- CPU_ReadMem(4 bytes @ 0xE000EDF0) - Data: 03 00 03 00  returns 0x01 (0002ms, 0763ms total)
T1CA8 000:804 JLINK_WriteU32(0xE000EDF0, 0xA05F0003) -- CPU_WriteMem(4 bytes @ 0xE000EDF0)  returns 0x00 (0002ms, 0765ms total)
T1CA8 000:806 JLINK_WriteU32(0xE000EDFC, 0x01000000) -- CPU_WriteMem(4 bytes @ 0xE000EDFC)  returns 0x00 (0002ms, 0767ms total)
T1CA8 000:818 JLINK_GetHWStatus(...)  returns 0x00 (0001ms, 0768ms total)
T1CA8 000:826 JLINK_GetNumBPUnits(Type = 0xFFFFFF00)  returns 0x06 (0000ms, 0768ms total)
T1CA8 000:826 JLINK_GetNumBPUnits(Type = 0xF0)  returns 0x2000 (0000ms, 0768ms total)
T1CA8 000:826 JLINK_GetNumWPUnits()  returns 0x04 (0000ms, 0768ms total)
T1CA8 000:834 JLINK_GetSpeed()  returns 0xFA0 (0000ms, 0768ms total)
T1CA8 000:838 JLINK_ReadMemU32(0xE000E004, 0x0001 Items, ...) -- CPU_ReadMem(4 bytes @ 0xE000E004) - Data: 01 00 00 00  returns 0x01 (0002ms, 0770ms total)
T1CA8 000:840 JLINK_ReadMemU32(0xE000E004, 0x0001 Items, ...) -- CPU_ReadMem(4 bytes @ 0xE000E004) - Data: 01 00 00 00  returns 0x01 (0001ms, 0771ms total)
T1CA8 000:841 JLINK_WriteMem(0xE0001000, 0x001C Bytes, ...) - Data: 01 00 00 00 00 00 00 00 00 00 00 00 00 00 00 00 ... -- CPU_WriteMem(28 bytes @ 0xE0001000)  returns 0x1C (0001ms, 0772ms total)
T1CA8 000:842 JLINK_ReadMem (0xE0001000, 0x001C Bytes, ...) -- CPU_ReadMem(28 bytes @ 0xE0001000) - Data: 01 00 00 40 00 00 00 00 00 00 00 00 00 00 00 00 ...  returns 0x00 (0001ms, 0773ms total)
T1CA8 000:843 JLINK_Halt()  returns 0x00 (0000ms, 0773ms total)
T1CA8 000:843 JLINK_IsHalted()  returns TRUE (0000ms, 0773ms total)
T1CA8 000:844 JLINK_WriteMem(0x20000000, 0x0164 Bytes, ...) - Data: 00 BE 0A E0 0D 78 2D 06 68 40 08 24 40 00 00 D3 ... -- CPU_WriteMem(356 bytes @ 0x20000000)  returns 0x164 (0003ms, 0776ms total)
T1CA8 000:847 JLINK_WriteReg(R0, 0x08000000)  returns 0x00 (0000ms, 0776ms total)
T1CA8 000:847 JLINK_WriteReg(R1, 0x00B71B00)  returns 0x00 (0000ms, 0776ms total)
T1CA8 000:847 JLINK_WriteReg(R2, 0x00000001)  returns 0x00 (0000ms, 0776ms total)
T1CA8 000:847 JLINK_WriteReg(R3, 0x00000000)  returns 0x00 (0000ms, 0776ms total)
T1CA8 000:847 JLINK_WriteReg(R4, 0x00000000)  returns 0x00 (0000ms, 0776ms total)
T1CA8 000:847 JLINK_WriteReg(R5, 0x00000000)  returns 0x00 (0000ms, 0776ms total)
T1CA8 000:847 JLINK_WriteReg(R6, 0x00000000)  returns 0x00 (0000ms, 0776ms total)
T1CA8 000:847 JLINK_WriteReg(R7, 0x00000000)  returns 0x00 (0000ms, 0776ms total)
T1CA8 000:847 JLINK_WriteReg(R8, 0x00000000)  returns 0x00 (0000ms, 0776ms total)
T1CA8 000:847 JLINK_WriteReg(R9, 0x20000160)  returns 0x00 (0000ms, 0776ms total)
T1CA8 000:847 JLINK_WriteReg(R10, 0x00000000)  returns 0x00 (0000ms, 0776ms total)
T1CA8 000:847 JLINK_WriteReg(R11, 0x00000000)  returns 0x00 (0000ms, 0776ms total)
T1CA8 000:847 JLINK_WriteReg(R12, 0x00000000)  returns 0x00 (0000ms, 0776ms total)
T1CA8 000:847 JLINK_WriteReg(R13 (SP), 0x20001000)  returns 0x00 (0000ms, 0776ms total)
T1CA8 000:847 JLINK_WriteReg(R14, 0x20000001)  returns 0x00 (0000ms, 0776ms total)
T1CA8 000:847 JLINK_WriteReg(R15 (PC), 0x20000038)  returns 0x00 (0000ms, 0776ms total)
T1CA8 000:847 JLINK_WriteReg(XPSR, 0x01000000)  returns 0x00 (0000ms, 0776ms total)
T1CA8 000:847 JLINK_WriteReg(MSP, 0x20001000)  returns 0x00 (0000ms, 0776ms total)
T1CA8 000:847 JLINK_WriteReg(PSP, 0x20001000)  returns 0x00 (0000ms, 0776ms total)
T1CA8 000:847 JLINK_WriteReg(CFBP, 0x00000000)  returns 0x00 (0000ms, 0776ms total)
T1CA8 000:847 JLINK_SetBPEx(Addr = 0x20000000, Type = 0xFFFFFFF2) -- CPU_ReadMem(2 bytes @ 0x20000000)  returns 0x00000001 (0002ms, 0778ms total)
T1CA8 000:849 JLINK_Go() -- CPU_WriteMem(2 bytes @ 0x20000000) -- CPU_ReadMem(4 bytes @ 0xE0001000) -- CPU_WriteMem(4 bytes @ 0xE0002008) -- CPU_WriteMem(4 bytes @ 0xE000200C) -- CPU_WriteMem(4 bytes @ 0xE0002010) -- CPU_WriteMem(4 bytes @ 0xE0002014) -- CPU_WriteMem(4 bytes @ 0xE0002018) -- CPU_WriteMem(4 bytes @ 0xE000201C) -- CPU_WriteMem(4 bytes @ 0xE0001004) (0011ms, 0789ms total)
T1CA8 000:860 JLINK_IsHalted() -- CPU_ReadMem(2 bytes @ 0x20000000)  returns TRUE (0007ms, 0796ms total)
T1CA8 000:867 JLINK_ReadReg(R15 (PC))  returns 0x20000000 (0000ms, 0789ms total)
T1CA8 000:867 JLINK_ClrBPEx(BPHandle = 0x00000001)  returns 0x00 (0000ms, 0789ms total)
T1CA8 000:867 JLINK_ReadReg(R0)  returns 0x00000000 (0000ms, 0789ms total)
T1CA8 000:868 JLINK_WriteReg(R0, 0x08000000)  returns 0x00 (0000ms, 0789ms total)
T1CA8 000:868 JLINK_WriteReg(R1, 0x00000400)  returns 0x00 (0000ms, 0789ms total)
T1CA8 000:868 JLINK_WriteReg(R2, 0x000000FF)  returns 0x00 (0000ms, 0789ms total)
T1CA8 000:868 JLINK_WriteReg(R3, 0x00000000)  returns 0x00 (0000ms, 0789ms total)
T1CA8 000:868 JLINK_WriteReg(R4, 0x00000000)  returns 0x00 (0000ms, 0789ms total)
T1CA8 000:868 JLINK_WriteReg(R5, 0x00000000)  returns 0x00 (0000ms, 0789ms total)
T1CA8 000:868 JLINK_WriteReg(R6, 0x00000000)  returns 0x00 (0000ms, 0789ms total)
T1CA8 000:868 JLINK_WriteReg(R7, 0x00000000)  returns 0x00 (0000ms, 0789ms total)
T1CA8 000:868 JLINK_WriteReg(R8, 0x00000000)  returns 0x00 (0000ms, 0789ms total)
T1CA8 000:868 JLINK_WriteReg(R9, 0x20000160)  returns 0x00 (0000ms, 0789ms total)
T1CA8 000:868 JLINK_WriteReg(R10, 0x00000000)  returns 0x00 (0000ms, 0789ms total)
T1CA8 000:868 JLINK_WriteReg(R11, 0x00000000)  returns 0x00 (0000ms, 0789ms total)
T1CA8 000:868 JLINK_WriteReg(R12, 0x00000000)  returns 0x00 (0000ms, 0789ms total)
T1CA8 000:868 JLINK_WriteReg(R13 (SP), 0x20001000)  returns 0x00 (0000ms, 0789ms total)
T1CA8 000:868 JLINK_WriteReg(R14, 0x20000001)  returns 0x00 (0000ms, 0789ms total)
T1CA8 000:868 JLINK_WriteReg(R15 (PC), 0x20000020)  returns 0x00 (0000ms, 0789ms total)
T1CA8 000:868 JLINK_WriteReg(XPSR, 0x01000000)  returns 0x00 (0000ms, 0789ms total)
T1CA8 000:868 JLINK_WriteReg(MSP, 0x20001000)  returns 0x00 (0000ms, 0789ms total)
T1CA8 000:868 JLINK_WriteReg(PSP, 0x20001000)  returns 0x00 (0000ms, 0789ms total)
T1CA8 000:868 JLINK_WriteReg(CFBP, 0x00000000)  returns 0x00 (0000ms, 0789ms total)
T1CA8 000:868 JLINK_SetBPEx(Addr = 0x20000000, Type = 0xFFFFFFF2)  returns 0x00000002 (0000ms, 0789ms total)
T1CA8 000:868 JLINK_Go() -- CPU_ReadMem(4 bytes @ 0xE0001000) (0006ms, 0795ms total)
T1CA8 000:874 JLINK_IsHalted() -- CPU_ReadMem(2 bytes @ 0x20000000)  returns TRUE (0004ms, 0799ms total)
T1CA8 000:878 JLINK_ReadReg(R15 (PC))  returns 0x20000000 (0000ms, 0795ms total)
T1CA8 000:878 JLINK_ClrBPEx(BPHandle = 0x00000002)  returns 0x00 (0000ms, 0795ms total)
T1CA8 000:878 JLINK_ReadReg(R0)  returns 0x00000001 (0000ms, 0795ms total)
T1CA8 000:878 JLINK_WriteReg(R0, 0x08000000)  returns 0x00 (0000ms, 0795ms total)
T1CA8 000:878 JLINK_WriteReg(R1, 0x00000400)  returns 0x00 (0000ms, 0795ms total)
T1CA8 000:878 JLINK_WriteReg(R2, 0x000000FF)  returns 0x00 (0000ms, 0795ms total)
T1CA8 000:878 JLINK_WriteReg(R3, 0x00000000)  returns 0x00 (0000ms, 0795ms total)
T1CA8 000:878 JLINK_WriteReg(R4, 0x00000000)  returns 0x00 (0000ms, 0795ms total)
T1CA8 000:878 JLINK_WriteReg(R5, 0x00000000)  returns 0x00 (0000ms, 0795ms total)
T1CA8 000:878 JLINK_WriteReg(R6, 0x00000000)  returns 0x00 (0000ms, 0795ms total)
T1CA8 000:878 JLINK_WriteReg(R7, 0x00000000)  returns 0x00 (0000ms, 0795ms total)
T1CA8 000:878 JLINK_WriteReg(R8, 0x00000000)  returns 0x00 (0000ms, 0795ms total)
T1CA8 000:878 JLINK_WriteReg(R9, 0x20000160)  returns 0x00 (0000ms, 0795ms total)
T1CA8 000:878 JLINK_WriteReg(R10, 0x00000000)  returns 0x00 (0000ms, 0795ms total)
T1CA8 000:878 JLINK_WriteReg(R11, 0x00000000)  returns 0x00 (0000ms, 0795ms total)
T1CA8 000:878 JLINK_WriteReg(R12, 0x00000000)  returns 0x00 (0000ms, 0795ms total)
T1CA8 000:878 JLINK_WriteReg(R13 (SP), 0x20001000)  returns 0x00 (0000ms, 0795ms total)
T1CA8 000:878 JLINK_WriteReg(R14, 0x20000001)  returns 0x00 (0000ms, 0795ms total)
T1CA8 000:878 JLINK_WriteReg(R15 (PC), 0x200000B6)  returns 0x00 (0000ms, 0795ms total)
T1CA8 000:879 JLINK_WriteReg(XPSR, 0x01000000)  returns 0x00 (0000ms, 0796ms total)
T1CA8 000:879 JLINK_WriteReg(MSP, 0x20001000)  returns 0x00 (0000ms, 0796ms total)
T1CA8 000:879 JLINK_WriteReg(PSP, 0x20001000)  returns 0x00 (0000ms, 0796ms total)
T1CA8 000:879 JLINK_WriteReg(CFBP, 0x00000000)  returns 0x00 (0000ms, 0796ms total)
T1CA8 000:879 JLINK_SetBPEx(Addr = 0x20000000, Type = 0xFFFFFFF2)  returns 0x00000003 (0000ms, 0796ms total)
T1CA8 000:879 JLINK_Go() -- CPU_ReadMem(4 bytes @ 0xE0001000) (0002ms, 0798ms total)
T1CA8 000:881 JLINK_IsHalted()  returns FALSE (0001ms, 0799ms total)
T1CA8 000:938 JLINK_IsHalted() -- CPU_ReadMem(2 bytes @ 0x20000000)  returns TRUE (0005ms, 0803ms total)
T1CA8 000:943 JLINK_ReadReg(R15 (PC))  returns 0x20000000 (0000ms, 0798ms total)
T1CA8 000:943 JLINK_ClrBPEx(BPHandle = 0x00000003)  returns 0x00 (0000ms, 0798ms total)
T1CA8 000:943 JLINK_ReadReg(R0)  returns 0x00000000 (0000ms, 0798ms total)
T1CA8 000:944 JLINK_WriteReg(R0, 0x08000400)  returns 0x00 (0000ms, 0798ms total)
T1CA8 000:944 JLINK_WriteReg(R1, 0x00000400)  returns 0x00 (0000ms, 0798ms total)
T1CA8 000:944 JLINK_WriteReg(R2, 0x000000FF)  returns 0x00 (0000ms, 0798ms total)
T1CA8 000:944 JLINK_WriteReg(R3, 0x00000000)  returns 0x00 (0000ms, 0798ms total)
T1CA8 000:944 JLINK_WriteReg(R4, 0x00000000)  returns 0x00 (0000ms, 0798ms total)
T1CA8 000:944 JLINK_WriteReg(R5, 0x00000000)  returns 0x00 (0000ms, 0798ms total)
T1CA8 000:944 JLINK_WriteReg(R6, 0x00000000)  returns 0x00 (0000ms, 0798ms total)
T1CA8 000:944 JLINK_WriteReg(R7, 0x00000000)  returns 0x00 (0000ms, 0798ms total)
T1CA8 000:944 JLINK_WriteReg(R8, 0x00000000)  returns 0x00 (0000ms, 0798ms total)
T1CA8 000:944 JLINK_WriteReg(R9, 0x20000160)  returns 0x00 (0000ms, 0798ms total)
T1CA8 000:944 JLINK_WriteReg(R10, 0x00000000)  returns 0x00 (0000ms, 0798ms total)
T1CA8 000:944 JLINK_WriteReg(R11, 0x00000000)  returns 0x00 (0000ms, 0798ms total)
T1CA8 000:944 JLINK_WriteReg(R12, 0x00000000)  returns 0x00 (0000ms, 0798ms total)
T1CA8 000:944 JLINK_WriteReg(R13 (SP), 0x20001000)  returns 0x00 (0000ms, 0798ms total)
T1CA8 000:944 JLINK_WriteReg(R14, 0x20000001)  returns 0x00 (0000ms, 0798ms total)
T1CA8 000:944 JLINK_WriteReg(R15 (PC), 0x20000020)  returns 0x00 (0000ms, 0798ms total)
T1CA8 000:944 JLINK_WriteReg(XPSR, 0x01000000)  returns 0x00 (0000ms, 0798ms total)
T1CA8 000:944 JLINK_WriteReg(MSP, 0x20001000)  returns 0x00 (0000ms, 0798ms total)
T1CA8 000:944 JLINK_WriteReg(PSP, 0x20001000)  returns 0x00 (0000ms, 0798ms total)
T1CA8 000:944 JLINK_WriteReg(CFBP, 0x00000000)  returns 0x00 (0000ms, 0798ms total)
T1CA8 000:944 JLINK_SetBPEx(Addr = 0x20000000, Type = 0xFFFFFFF2)  returns 0x00000004 (0000ms, 0798ms total)
T1CA8 000:944 JLINK_Go() -- CPU_ReadMem(4 bytes @ 0xE0001000) (0003ms, 0801ms total)
T1CA8 000:947 JLINK_IsHalted() -- CPU_ReadMem(2 bytes @ 0x20000000)  returns TRUE (0005ms, 0806ms total)
T1CA8 000:952 JLINK_ReadReg(R15 (PC))  returns 0x20000000 (0000ms, 0801ms total)
T1CA8 000:952 JLINK_ClrBPEx(BPHandle = 0x00000004)  returns 0x00 (0000ms, 0801ms total)
T1CA8 000:952 JLINK_ReadReg(R0)  returns 0x00000001 (0000ms, 0801ms total)
T1CA8 000:952 JLINK_WriteReg(R0, 0x08000400)  returns 0x00 (0000ms, 0801ms total)
T1CA8 000:952 JLINK_WriteReg(R1, 0x00000400)  returns 0x00 (0000ms, 0801ms total)
T1CA8 000:952 JLINK_WriteReg(R2, 0x000000FF)  returns 0x00 (0000ms, 0801ms total)
T1CA8 000:952 JLINK_WriteReg(R3, 0x00000000)  returns 0x00 (0000ms, 0801ms total)
T1CA8 000:952 JLINK_WriteReg(R4, 0x00000000)  returns 0x00 (0000ms, 0801ms total)
T1CA8 000:952 JLINK_WriteReg(R5, 0x00000000)  returns 0x00 (0000ms, 0801ms total)
T1CA8 000:952 JLINK_WriteReg(R6, 0x00000000)  returns 0x00 (0000ms, 0801ms total)
T1CA8 000:952 JLINK_WriteReg(R7, 0x00000000)  returns 0x00 (0001ms, 0802ms total)
T1CA8 000:953 JLINK_WriteReg(R8, 0x00000000)  returns 0x00 (0000ms, 0802ms total)
T1CA8 000:953 JLINK_WriteReg(R9, 0x20000160)  returns 0x00 (0000ms, 0802ms total)
T1CA8 000:953 JLINK_WriteReg(R10, 0x00000000)  returns 0x00 (0000ms, 0802ms total)
T1CA8 000:953 JLINK_WriteReg(R11, 0x00000000)  returns 0x00 (0000ms, 0802ms total)
T1CA8 000:953 JLINK_WriteReg(R12, 0x00000000)  returns 0x00 (0000ms, 0802ms total)
T1CA8 000:953 JLINK_WriteReg(R13 (SP), 0x20001000)  returns 0x00 (0000ms, 0802ms total)
T1CA8 000:953 JLINK_WriteReg(R14, 0x20000001)  returns 0x00 (0000ms, 0802ms total)
T1CA8 000:953 JLINK_WriteReg(R15 (PC), 0x200000B6)  returns 0x00 (0000ms, 0802ms total)
T1CA8 000:953 JLINK_WriteReg(XPSR, 0x01000000)  returns 0x00 (0000ms, 0802ms total)
T1CA8 000:953 JLINK_WriteReg(MSP, 0x20001000)  returns 0x00 (0000ms, 0802ms total)
T1CA8 000:953 JLINK_WriteReg(PSP, 0x20001000)  returns 0x00 (0000ms, 0802ms total)
T1CA8 000:953 JLINK_WriteReg(CFBP, 0x00000000)  returns 0x00 (0000ms, 0802ms total)
T1CA8 000:953 JLINK_SetBPEx(Addr = 0x20000000, Type = 0xFFFFFFF2)  returns 0x00000005 (0000ms, 0802ms total)
T1CA8 000:953 JLINK_Go() -- CPU_ReadMem(4 bytes @ 0xE0001000) (0002ms, 0804ms total)
T1CA8 000:955 JLINK_IsHalted()  returns FALSE (0001ms, 0805ms total)
T1CA8 000:957 JLINK_IsHalted()  returns FALSE (0000ms, 0804ms total)
T1CA8 000:958 JLINK_IsHalted()  returns FALSE (0000ms, 0804ms total)
T1CA8 000:959 JLINK_IsHalted()  returns FALSE (0000ms, 0804ms total)
T1CA8 000:960 JLINK_IsHalted()  returns FALSE (0001ms, 0805ms total)
T1CA8 000:962 JLINK_IsHalted()  returns FALSE (0001ms, 0805ms total)
T1CA8 000:964 JLINK_IsHalted()  returns FALSE (0002ms, 0806ms total)
T1CA8 000:968 JLINK_IsHalted()  returns FALSE (0001ms, 0805ms total)
T1CA8 000:970 JLINK_IsHalted()  returns FALSE (0001ms, 0805ms total)
T1CA8 000:972 JLINK_IsHalted()  returns FALSE (0001ms, 0805ms total)
T1CA8 000:974 JLINK_IsHalted()  returns FALSE (0001ms, 0805ms total)
T1CA8 000:976 JLINK_IsHalted()  returns FALSE (0001ms, 0805ms total)
T1CA8 000:978 JLINK_IsHalted() -- CPU_ReadMem(2 bytes @ 0x20000000)  returns TRUE (0004ms, 0808ms total)
T1CA8 000:982 JLINK_ReadReg(R15 (PC))  returns 0x20000000 (0000ms, 0804ms total)
T1CA8 000:982 JLINK_ClrBPEx(BPHandle = 0x00000005)  returns 0x00 (0000ms, 0804ms total)
T1CA8 000:982 JLINK_ReadReg(R0)  returns 0x00000000 (0000ms, 0804ms total)
T1CA8 000:982 JLINK_WriteReg(R0, 0x08000800)  returns 0x00 (0000ms, 0804ms total)
T1CA8 000:982 JLINK_WriteReg(R1, 0x00000400)  returns 0x00 (0000ms, 0804ms total)
T1CA8 000:982 JLINK_WriteReg(R2, 0x000000FF)  returns 0x00 (0000ms, 0804ms total)
T1CA8 000:982 JLINK_WriteReg(R3, 0x00000000)  returns 0x00 (0000ms, 0804ms total)
T1CA8 000:982 JLINK_WriteReg(R4, 0x00000000)  returns 0x00 (0000ms, 0804ms total)
T1CA8 000:982 JLINK_WriteReg(R5, 0x00000000)  returns 0x00 (0000ms, 0804ms total)
T1CA8 000:982 JLINK_WriteReg(R6, 0x00000000)  returns 0x00 (0000ms, 0804ms total)
T1CA8 000:982 JLINK_WriteReg(R7, 0x00000000)  returns 0x00 (0000ms, 0804ms total)
T1CA8 000:982 JLINK_WriteReg(R8, 0x00000000)  returns 0x00 (0000ms, 0804ms total)
T1CA8 000:982 JLINK_WriteReg(R9, 0x20000160)  returns 0x00 (0000ms, 0804ms total)
T1CA8 000:982 JLINK_WriteReg(R10, 0x00000000)  returns 0x00 (0000ms, 0804ms total)
T1CA8 000:982 JLINK_WriteReg(R11, 0x00000000)  returns 0x00 (0000ms, 0804ms total)
T1CA8 000:982 JLINK_WriteReg(R12, 0x00000000)  returns 0x00 (0000ms, 0804ms total)
T1CA8 000:982 JLINK_WriteReg(R13 (SP), 0x20001000)  returns 0x00 (0000ms, 0804ms total)
T1CA8 000:982 JLINK_WriteReg(R14, 0x20000001)  returns 0x00 (0000ms, 0804ms total)
T1CA8 000:982 JLINK_WriteReg(R15 (PC), 0x20000020)  returns 0x00 (0001ms, 0805ms total)
T1CA8 000:983 JLINK_WriteReg(XPSR, 0x01000000)  returns 0x00 (0000ms, 0805ms total)
T1CA8 000:983 JLINK_WriteReg(MSP, 0x20001000)  returns 0x00 (0000ms, 0805ms total)
T1CA8 000:983 JLINK_WriteReg(PSP, 0x20001000)  returns 0x00 (0000ms, 0805ms total)
T1CA8 000:983 JLINK_WriteReg(CFBP, 0x00000000)  returns 0x00 (0000ms, 0805ms total)
T1CA8 000:983 JLINK_SetBPEx(Addr = 0x20000000, Type = 0xFFFFFFF2)  returns 0x00000006 (0000ms, 0805ms total)
T1CA8 000:983 JLINK_Go() -- CPU_ReadMem(4 bytes @ 0xE0001000) (0003ms, 0808ms total)
T1CA8 000:986 JLINK_IsHalted() -- CPU_ReadMem(2 bytes @ 0x20000000)  returns TRUE (0004ms, 0812ms total)
T1CA8 000:990 JLINK_ReadReg(R15 (PC))  returns 0x20000000 (0000ms, 0808ms total)
T1CA8 000:990 JLINK_ClrBPEx(BPHandle = 0x00000006)  returns 0x00 (0000ms, 0808ms total)
T1CA8 000:990 JLINK_ReadReg(R0)  returns 0x00000001 (0000ms, 0808ms total)
T1CA8 000:990 JLINK_WriteReg(R0, 0x08000800)  returns 0x00 (0000ms, 0808ms total)
T1CA8 000:990 JLINK_WriteReg(R1, 0x00000400)  returns 0x00 (0000ms, 0808ms total)
T1CA8 000:990 JLINK_WriteReg(R2, 0x000000FF)  returns 0x00 (0000ms, 0808ms total)
T1CA8 000:990 JLINK_WriteReg(R3, 0x00000000)  returns 0x00 (0000ms, 0808ms total)
T1CA8 000:990 JLINK_WriteReg(R4, 0x00000000)  returns 0x00 (0000ms, 0808ms total)
T1CA8 000:990 JLINK_WriteReg(R5, 0x00000000)  returns 0x00 (0000ms, 0808ms total)
T1CA8 000:990 JLINK_WriteReg(R6, 0x00000000)  returns 0x00 (0000ms, 0808ms total)
T1CA8 000:990 JLINK_WriteReg(R7, 0x00000000)  returns 0x00 (0000ms, 0808ms total)
T1CA8 000:990 JLINK_WriteReg(R8, 0x00000000)  returns 0x00 (0000ms, 0808ms total)
T1CA8 000:990 JLINK_WriteReg(R9, 0x20000160)  returns 0x00 (0000ms, 0808ms total)
T1CA8 000:990 JLINK_WriteReg(R10, 0x00000000)  returns 0x00 (0000ms, 0808ms total)
T1CA8 000:990 JLINK_WriteReg(R11, 0x00000000)  returns 0x00 (0000ms, 0808ms total)
T1CA8 000:990 JLINK_WriteReg(R12, 0x00000000)  returns 0x00 (0000ms, 0808ms total)
T1CA8 000:990 JLINK_WriteReg(R13 (SP), 0x20001000)  returns 0x00 (0000ms, 0808ms total)
T1CA8 000:990 JLINK_WriteReg(R14, 0x20000001)  returns 0x00 (0000ms, 0808ms total)
T1CA8 000:990 JLINK_WriteReg(R15 (PC), 0x200000B6)  returns 0x00 (0000ms, 0808ms total)
T1CA8 000:990 JLINK_WriteReg(XPSR, 0x01000000)  returns 0x00 (0000ms, 0808ms total)
T1CA8 000:990 JLINK_WriteReg(MSP, 0x20001000)  returns 0x00 (0000ms, 0808ms total)
T1CA8 000:990 JLINK_WriteReg(PSP, 0x20001000)  returns 0x00 (0000ms, 0808ms total)
T1CA8 000:990 JLINK_WriteReg(CFBP, 0x00000000)  returns 0x00 (0000ms, 0808ms total)
T1CA8 000:990 JLINK_SetBPEx(Addr = 0x20000000, Type = 0xFFFFFFF2)  returns 0x00000007 (0000ms, 0808ms total)
T1CA8 000:990 JLINK_Go() -- CPU_ReadMem(4 bytes @ 0xE0001000) (0003ms, 0811ms total)
T1CA8 000:993 JLINK_IsHalted()  returns FALSE (0001ms, 0812ms total)
T1CA8 001:031 JLINK_IsHalted() -- CPU_ReadMem(2 bytes @ 0x20000000)  returns TRUE (0005ms, 0816ms total)
T1CA8 001:036 JLINK_ReadReg(R15 (PC))  returns 0x20000000 (0000ms, 0811ms total)
T1CA8 001:036 JLINK_ClrBPEx(BPHandle = 0x00000007)  returns 0x00 (0000ms, 0811ms total)
T1CA8 001:036 JLINK_ReadReg(R0)  returns 0x00000000 (0000ms, 0811ms total)
T1CA8 001:036 JLINK_WriteReg(R0, 0x08000C00)  returns 0x00 (0000ms, 0811ms total)
T1CA8 001:036 JLINK_WriteReg(R1, 0x00000400)  returns 0x00 (0000ms, 0811ms total)
T1CA8 001:036 JLINK_WriteReg(R2, 0x000000FF)  returns 0x00 (0000ms, 0811ms total)
T1CA8 001:036 JLINK_WriteReg(R3, 0x00000000)  returns 0x00 (0000ms, 0811ms total)
T1CA8 001:036 JLINK_WriteReg(R4, 0x00000000)  returns 0x00 (0000ms, 0811ms total)
T1CA8 001:036 JLINK_WriteReg(R5, 0x00000000)  returns 0x00 (0000ms, 0811ms total)
T1CA8 001:036 JLINK_WriteReg(R6, 0x00000000)  returns 0x00 (0000ms, 0811ms total)
T1CA8 001:036 JLINK_WriteReg(R7, 0x00000000)  returns 0x00 (0000ms, 0811ms total)
T1CA8 001:036 JLINK_WriteReg(R8, 0x00000000)  returns 0x00 (0000ms, 0811ms total)
T1CA8 001:036 JLINK_WriteReg(R9, 0x20000160)  returns 0x00 (0001ms, 0812ms total)
T1CA8 001:037 JLINK_WriteReg(R10, 0x00000000)  returns 0x00 (0000ms, 0812ms total)
T1CA8 001:037 JLINK_WriteReg(R11, 0x00000000)  returns 0x00 (0000ms, 0812ms total)
T1CA8 001:037 JLINK_WriteReg(R12, 0x00000000)  returns 0x00 (0000ms, 0812ms total)
T1CA8 001:037 JLINK_WriteReg(R13 (SP), 0x20001000)  returns 0x00 (0000ms, 0812ms total)
T1CA8 001:037 JLINK_WriteReg(R14, 0x20000001)  returns 0x00 (0000ms, 0812ms total)
T1CA8 001:037 JLINK_WriteReg(R15 (PC), 0x20000020)  returns 0x00 (0000ms, 0812ms total)
T1CA8 001:037 JLINK_WriteReg(XPSR, 0x01000000)  returns 0x00 (0000ms, 0812ms total)
T1CA8 001:037 JLINK_WriteReg(MSP, 0x20001000)  returns 0x00 (0000ms, 0812ms total)
T1CA8 001:037 JLINK_WriteReg(PSP, 0x20001000)  returns 0x00 (0000ms, 0812ms total)
T1CA8 001:037 JLINK_WriteReg(CFBP, 0x00000000)  returns 0x00 (0000ms, 0812ms total)
T1CA8 001:037 JLINK_SetBPEx(Addr = 0x20000000, Type = 0xFFFFFFF2)  returns 0x00000008 (0000ms, 0812ms total)
T1CA8 001:037 JLINK_Go() -- CPU_ReadMem(4 bytes @ 0xE0001000) (0003ms, 0815ms total)
T1CA8 001:040 JLINK_IsHalted() -- CPU_ReadMem(2 bytes @ 0x20000000)  returns TRUE (0004ms, 0819ms total)
T1CA8 001:044 JLINK_ReadReg(R15 (PC))  returns 0x20000000 (0000ms, 0815ms total)
T1CA8 001:044 JLINK_ClrBPEx(BPHandle = 0x00000008)  returns 0x00 (0000ms, 0815ms total)
T1CA8 001:044 JLINK_ReadReg(R0)  returns 0x00000001 (0000ms, 0815ms total)
T1CA8 001:044 JLINK_WriteReg(R0, 0x08000C00)  returns 0x00 (0000ms, 0815ms total)
T1CA8 001:044 JLINK_WriteReg(R1, 0x00000400)  returns 0x00 (0000ms, 0815ms total)
T1CA8 001:044 JLINK_WriteReg(R2, 0x000000FF)  returns 0x00 (0000ms, 0815ms total)
T1CA8 001:044 JLINK_WriteReg(R3, 0x00000000)  returns 0x00 (0000ms, 0815ms total)
T1CA8 001:044 JLINK_WriteReg(R4, 0x00000000)  returns 0x00 (0000ms, 0815ms total)
T1CA8 001:044 JLINK_WriteReg(R5, 0x00000000)  returns 0x00 (0000ms, 0815ms total)
T1CA8 001:044 JLINK_WriteReg(R6, 0x00000000)  returns 0x00 (0000ms, 0815ms total)
T1CA8 001:044 JLINK_WriteReg(R7, 0x00000000)  returns 0x00 (0000ms, 0815ms total)
T1CA8 001:044 JLINK_WriteReg(R8, 0x00000000)  returns 0x00 (0000ms, 0815ms total)
T1CA8 001:044 JLINK_WriteReg(R9, 0x20000160)  returns 0x00 (0000ms, 0815ms total)
T1CA8 001:044 JLINK_WriteReg(R10, 0x00000000)  returns 0x00 (0000ms, 0815ms total)
T1CA8 001:044 JLINK_WriteReg(R11, 0x00000000)  returns 0x00 (0000ms, 0815ms total)
T1CA8 001:044 JLINK_WriteReg(R12, 0x00000000)  returns 0x00 (0000ms, 0815ms total)
T1CA8 001:044 JLINK_WriteReg(R13 (SP), 0x20001000)  returns 0x00 (0000ms, 0815ms total)
T1CA8 001:044 JLINK_WriteReg(R14, 0x20000001)  returns 0x00 (0000ms, 0815ms total)
T1CA8 001:044 JLINK_WriteReg(R15 (PC), 0x200000B6)  returns 0x00 (0000ms, 0815ms total)
T1CA8 001:044 JLINK_WriteReg(XPSR, 0x01000000)  returns 0x00 (0000ms, 0815ms total)
T1CA8 001:044 JLINK_WriteReg(MSP, 0x20001000)  returns 0x00 (0000ms, 0815ms total)
T1CA8 001:044 JLINK_WriteReg(PSP, 0x20001000)  returns 0x00 (0000ms, 0815ms total)
T1CA8 001:044 JLINK_WriteReg(CFBP, 0x00000000)  returns 0x00 (0000ms, 0815ms total)
T1CA8 001:044 JLINK_SetBPEx(Addr = 0x20000000, Type = 0xFFFFFFF2)  returns 0x00000009 (0000ms, 0815ms total)
T1CA8 001:044 JLINK_Go() -- CPU_ReadMem(4 bytes @ 0xE0001000) (0005ms, 0820ms total)
T1CA8 001:049 JLINK_IsHalted()  returns FALSE (0001ms, 0821ms total)
T1CA8 001:051 JLINK_IsHalted()  returns FALSE (0000ms, 0820ms total)
T1CA8 001:052 JLINK_IsHalted()  returns FALSE (0000ms, 0820ms total)
T1CA8 001:053 JLINK_IsHalted()  returns FALSE (0000ms, 0820ms total)
T1CA8 001:054 JLINK_IsHalted()  returns FALSE (0000ms, 0820ms total)
T1CA8 001:055 JLINK_IsHalted()  returns FALSE (0000ms, 0820ms total)
T1CA8 001:056 JLINK_IsHalted()  returns FALSE (0000ms, 0820ms total)
T1CA8 001:057 JLINK_IsHalted()  returns FALSE (0000ms, 0820ms total)
T1CA8 001:058 JLINK_IsHalted()  returns FALSE (0000ms, 0820ms total)
T1CA8 001:059 JLINK_IsHalted()  returns FALSE (0000ms, 0820ms total)
T1CA8 001:060 JLINK_IsHalted()  returns FALSE (0000ms, 0820ms total)
T1CA8 001:061 JLINK_IsHalted()  returns FALSE (0000ms, 0820ms total)
T1CA8 001:062 JLINK_IsHalted()  returns FALSE (0001ms, 0821ms total)
T1CA8 001:064 JLINK_IsHalted()  returns FALSE (0000ms, 0820ms total)
T1CA8 001:065 JLINK_IsHalted()  returns FALSE (0000ms, 0820ms total)
T1CA8 001:066 JLINK_IsHalted()  returns FALSE (0000ms, 0820ms total)
T1CA8 001:067 JLINK_IsHalted()  returns FALSE (0000ms, 0820ms total)
T1CA8 001:068 JLINK_IsHalted()  returns FALSE (0000ms, 0820ms total)
T1CA8 001:069 JLINK_IsHalted()  returns FALSE (0000ms, 0820ms total)
T1CA8 001:070 JLINK_IsHalted()  returns FALSE (0000ms, 0820ms total)
T1CA8 001:071 JLINK_IsHalted() -- CPU_ReadMem(2 bytes @ 0x20000000)  returns TRUE (0003ms, 0823ms total)
T1CA8 001:074 JLINK_ReadReg(R15 (PC))  returns 0x20000000 (0000ms, 0820ms total)
T1CA8 001:074 JLINK_ClrBPEx(BPHandle = 0x00000009)  returns 0x00 (0000ms, 0820ms total)
T1CA8 001:074 JLINK_ReadReg(R0)  returns 0x00000000 (0001ms, 0821ms total)
T1CA8 001:075 JLINK_WriteReg(R0, 0x08001000)  returns 0x00 (0000ms, 0821ms total)
T1CA8 001:075 JLINK_WriteReg(R1, 0x00000400)  returns 0x00 (0000ms, 0821ms total)
T1CA8 001:075 JLINK_WriteReg(R2, 0x000000FF)  returns 0x00 (0000ms, 0821ms total)
T1CA8 001:075 JLINK_WriteReg(R3, 0x00000000)  returns 0x00 (0000ms, 0821ms total)
T1CA8 001:075 JLINK_WriteReg(R4, 0x00000000)  returns 0x00 (0000ms, 0821ms total)
T1CA8 001:075 JLINK_WriteReg(R5, 0x00000000)  returns 0x00 (0000ms, 0821ms total)
T1CA8 001:075 JLINK_WriteReg(R6, 0x00000000)  returns 0x00 (0000ms, 0821ms total)
T1CA8 001:075 JLINK_WriteReg(R7, 0x00000000)  returns 0x00 (0000ms, 0821ms total)
T1CA8 001:075 JLINK_WriteReg(R8, 0x00000000)  returns 0x00 (0000ms, 0821ms total)
T1CA8 001:075 JLINK_WriteReg(R9, 0x20000160)  returns 0x00 (0000ms, 0821ms total)
T1CA8 001:075 JLINK_WriteReg(R10, 0x00000000)  returns 0x00 (0000ms, 0821ms total)
T1CA8 001:075 JLINK_WriteReg(R11, 0x00000000)  returns 0x00 (0000ms, 0821ms total)
T1CA8 001:075 JLINK_WriteReg(R12, 0x00000000)  returns 0x00 (0000ms, 0821ms total)
T1CA8 001:075 JLINK_WriteReg(R13 (SP), 0x20001000)  returns 0x00 (0000ms, 0821ms total)
T1CA8 001:075 JLINK_WriteReg(R14, 0x20000001)  returns 0x00 (0000ms, 0821ms total)
T1CA8 001:075 JLINK_WriteReg(R15 (PC), 0x20000020)  returns 0x00 (0000ms, 0821ms total)
T1CA8 001:075 JLINK_WriteReg(XPSR, 0x01000000)  returns 0x00 (0000ms, 0821ms total)
T1CA8 001:075 JLINK_WriteReg(MSP, 0x20001000)  returns 0x00 (0000ms, 0821ms total)
T1CA8 001:075 JLINK_WriteReg(PSP, 0x20001000)  returns 0x00 (0001ms, 0822ms total)
T1CA8 001:076 JLINK_WriteReg(CFBP, 0x00000000)  returns 0x00 (0000ms, 0822ms total)
T1CA8 001:076 JLINK_SetBPEx(Addr = 0x20000000, Type = 0xFFFFFFF2)  returns 0x0000000A (0000ms, 0822ms total)
T1CA8 001:076 JLINK_Go() -- CPU_ReadMem(4 bytes @ 0xE0001000) (0003ms, 0825ms total)
T1CA8 001:079 JLINK_IsHalted() -- CPU_ReadMem(2 bytes @ 0x20000000)  returns TRUE (0005ms, 0830ms total)
T1CA8 001:084 JLINK_ReadReg(R15 (PC))  returns 0x20000000 (0000ms, 0825ms total)
T1CA8 001:084 JLINK_ClrBPEx(BPHandle = 0x0000000A)  returns 0x00 (0000ms, 0825ms total)
T1CA8 001:084 JLINK_ReadReg(R0)  returns 0x00000001 (0000ms, 0825ms total)
T1CA8 001:084 JLINK_WriteReg(R0, 0x08001000)  returns 0x00 (0000ms, 0825ms total)
T1CA8 001:084 JLINK_WriteReg(R1, 0x00000400)  returns 0x00 (0000ms, 0825ms total)
T1CA8 001:084 JLINK_WriteReg(R2, 0x000000FF)  returns 0x00 (0000ms, 0825ms total)
T1CA8 001:084 JLINK_WriteReg(R3, 0x00000000)  returns 0x00 (0000ms, 0825ms total)
T1CA8 001:084 JLINK_WriteReg(R4, 0x00000000)  returns 0x00 (0000ms, 0825ms total)
T1CA8 001:084 JLINK_WriteReg(R5, 0x00000000)  returns 0x00 (0000ms, 0825ms total)
T1CA8 001:084 JLINK_WriteReg(R6, 0x00000000)  returns 0x00 (0000ms, 0825ms total)
T1CA8 001:084 JLINK_WriteReg(R7, 0x00000000)  returns 0x00 (0000ms, 0825ms total)
T1CA8 001:084 JLINK_WriteReg(R8, 0x00000000)  returns 0x00 (0000ms, 0825ms total)
T1CA8 001:084 JLINK_WriteReg(R9, 0x20000160)  returns 0x00 (0000ms, 0825ms total)
T1CA8 001:084 JLINK_WriteReg(R10, 0x00000000)  returns 0x00 (0000ms, 0825ms total)
T1CA8 001:084 JLINK_WriteReg(R11, 0x00000000)  returns 0x00 (0000ms, 0825ms total)
T1CA8 001:084 JLINK_WriteReg(R12, 0x00000000)  returns 0x00 (0000ms, 0825ms total)
T1CA8 001:084 JLINK_WriteReg(R13 (SP), 0x20001000)  returns 0x00 (0000ms, 0825ms total)
T1CA8 001:084 JLINK_WriteReg(R14, 0x20000001)  returns 0x00 (0000ms, 0825ms total)
T1CA8 001:084 JLINK_WriteReg(R15 (PC), 0x200000B6)  returns 0x00 (0000ms, 0825ms total)
T1CA8 001:084 JLINK_WriteReg(XPSR, 0x01000000)  returns 0x00 (0000ms, 0825ms total)
T1CA8 001:084 JLINK_WriteReg(MSP, 0x20001000)  returns 0x00 (0000ms, 0825ms total)
T1CA8 001:084 JLINK_WriteReg(PSP, 0x20001000)  returns 0x00 (0000ms, 0825ms total)
T1CA8 001:084 JLINK_WriteReg(CFBP, 0x00000000)  returns 0x00 (0000ms, 0825ms total)
T1CA8 001:084 JLINK_SetBPEx(Addr = 0x20000000, Type = 0xFFFFFFF2)  returns 0x0000000B (0000ms, 0825ms total)
T1CA8 001:084 JLINK_Go() -- CPU_ReadMem(4 bytes @ 0xE0001000) (0006ms, 0831ms total)
T1CA8 001:090 JLINK_IsHalted()  returns FALSE (0001ms, 0832ms total)
T1CA8 001:129 JLINK_IsHalted() -- CPU_ReadMem(2 bytes @ 0x20000000)  returns TRUE (0004ms, 0835ms total)
T1CA8 001:133 JLINK_ReadReg(R15 (PC))  returns 0x20000000 (0000ms, 0831ms total)
T1CA8 001:133 JLINK_ClrBPEx(BPHandle = 0x0000000B)  returns 0x00 (0000ms, 0831ms total)
T1CA8 001:133 JLINK_ReadReg(R0)  returns 0x00000000 (0000ms, 0831ms total)
T1CA8 001:133 JLINK_WriteReg(R0, 0x08001400)  returns 0x00 (0000ms, 0831ms total)
T1CA8 001:133 JLINK_WriteReg(R1, 0x00000400)  returns 0x00 (0000ms, 0831ms total)
T1CA8 001:133 JLINK_WriteReg(R2, 0x000000FF)  returns 0x00 (0000ms, 0831ms total)
T1CA8 001:133 JLINK_WriteReg(R3, 0x00000000)  returns 0x00 (0000ms, 0831ms total)
T1CA8 001:133 JLINK_WriteReg(R4, 0x00000000)  returns 0x00 (0000ms, 0831ms total)
T1CA8 001:133 JLINK_WriteReg(R5, 0x00000000)  returns 0x00 (0000ms, 0831ms total)
T1CA8 001:133 JLINK_WriteReg(R6, 0x00000000)  returns 0x00 (0000ms, 0831ms total)
T1CA8 001:133 JLINK_WriteReg(R7, 0x00000000)  returns 0x00 (0000ms, 0831ms total)
T1CA8 001:133 JLINK_WriteReg(R8, 0x00000000)  returns 0x00 (0000ms, 0831ms total)
T1CA8 001:133 JLINK_WriteReg(R9, 0x20000160)  returns 0x00 (0000ms, 0831ms total)
T1CA8 001:133 JLINK_WriteReg(R10, 0x00000000)  returns 0x00 (0000ms, 0831ms total)
T1CA8 001:133 JLINK_WriteReg(R11, 0x00000000)  returns 0x00 (0001ms, 0832ms total)
T1CA8 001:134 JLINK_WriteReg(R12, 0x00000000)  returns 0x00 (0000ms, 0832ms total)
T1CA8 001:134 JLINK_WriteReg(R13 (SP), 0x20001000)  returns 0x00 (0000ms, 0832ms total)
T1CA8 001:134 JLINK_WriteReg(R14, 0x20000001)  returns 0x00 (0000ms, 0832ms total)
T1CA8 001:134 JLINK_WriteReg(R15 (PC), 0x20000020)  returns 0x00 (0000ms, 0832ms total)
T1CA8 001:134 JLINK_WriteReg(XPSR, 0x01000000)  returns 0x00 (0000ms, 0832ms total)
T1CA8 001:134 JLINK_WriteReg(MSP, 0x20001000)  returns 0x00 (0000ms, 0832ms total)
T1CA8 001:134 JLINK_WriteReg(PSP, 0x20001000)  returns 0x00 (0000ms, 0832ms total)
T1CA8 001:134 JLINK_WriteReg(CFBP, 0x00000000)  returns 0x00 (0000ms, 0832ms total)
T1CA8 001:134 JLINK_SetBPEx(Addr = 0x20000000, Type = 0xFFFFFFF2)  returns 0x0000000C (0000ms, 0832ms total)
T1CA8 001:134 JLINK_Go() -- CPU_ReadMem(4 bytes @ 0xE0001000) (0003ms, 0835ms total)
T1CA8 001:137 JLINK_IsHalted() -- CPU_ReadMem(2 bytes @ 0x20000000)  returns TRUE (0004ms, 0839ms total)
T1CA8 001:141 JLINK_ReadReg(R15 (PC))  returns 0x20000000 (0000ms, 0835ms total)
T1CA8 001:141 JLINK_ClrBPEx(BPHandle = 0x0000000C)  returns 0x00 (0000ms, 0835ms total)
T1CA8 001:141 JLINK_ReadReg(R0)  returns 0x00000001 (0000ms, 0835ms total)
T1CA8 001:141 JLINK_WriteReg(R0, 0x08001400)  returns 0x00 (0000ms, 0835ms total)
T1CA8 001:141 JLINK_WriteReg(R1, 0x00000400)  returns 0x00 (0000ms, 0835ms total)
T1CA8 001:141 JLINK_WriteReg(R2, 0x000000FF)  returns 0x00 (0000ms, 0835ms total)
T1CA8 001:141 JLINK_WriteReg(R3, 0x00000000)  returns 0x00 (0000ms, 0835ms total)
T1CA8 001:141 JLINK_WriteReg(R4, 0x00000000)  returns 0x00 (0000ms, 0835ms total)
T1CA8 001:141 JLINK_WriteReg(R5, 0x00000000)  returns 0x00 (0000ms, 0835ms total)
T1CA8 001:141 JLINK_WriteReg(R6, 0x00000000)  returns 0x00 (0000ms, 0835ms total)
T1CA8 001:141 JLINK_WriteReg(R7, 0x00000000)  returns 0x00 (0000ms, 0835ms total)
T1CA8 001:141 JLINK_WriteReg(R8, 0x00000000)  returns 0x00 (0000ms, 0835ms total)
T1CA8 001:141 JLINK_WriteReg(R9, 0x20000160)  returns 0x00 (0000ms, 0835ms total)
T1CA8 001:141 JLINK_WriteReg(R10, 0x00000000)  returns 0x00 (0000ms, 0835ms total)
T1CA8 001:141 JLINK_WriteReg(R11, 0x00000000)  returns 0x00 (0000ms, 0835ms total)
T1CA8 001:141 JLINK_WriteReg(R12, 0x00000000)  returns 0x00 (0000ms, 0835ms total)
T1CA8 001:141 JLINK_WriteReg(R13 (SP), 0x20001000)  returns 0x00 (0000ms, 0835ms total)
T1CA8 001:141 JLINK_WriteReg(R14, 0x20000001)  returns 0x00 (0000ms, 0835ms total)
T1CA8 001:141 JLINK_WriteReg(R15 (PC), 0x200000B6)  returns 0x00 (0000ms, 0835ms total)
T1CA8 001:141 JLINK_WriteReg(XPSR, 0x01000000)  returns 0x00 (0000ms, 0835ms total)
T1CA8 001:141 JLINK_WriteReg(MSP, 0x20001000)  returns 0x00 (0000ms, 0835ms total)
T1CA8 001:141 JLINK_WriteReg(PSP, 0x20001000)  returns 0x00 (0000ms, 0835ms total)
T1CA8 001:141 JLINK_WriteReg(CFBP, 0x00000000)  returns 0x00 (0000ms, 0835ms total)
T1CA8 001:141 JLINK_SetBPEx(Addr = 0x20000000, Type = 0xFFFFFFF2)  returns 0x0000000D (0000ms, 0835ms total)
T1CA8 001:141 JLINK_Go() -- CPU_ReadMem(4 bytes @ 0xE0001000) (0004ms, 0839ms total)
T1CA8 001:145 JLINK_IsHalted()  returns FALSE (0002ms, 0841ms total)
T1CA8 001:148 JLINK_IsHalted()  returns FALSE (0000ms, 0839ms total)
T1CA8 001:149 JLINK_IsHalted()  returns FALSE (0002ms, 0841ms total)
T1CA8 001:152 JLINK_IsHalted()  returns FALSE (0002ms, 0841ms total)
T1CA8 001:155 JLINK_IsHalted()  returns FALSE (0001ms, 0840ms total)
T1CA8 001:157 JLINK_IsHalted()  returns FALSE (0001ms, 0840ms total)
T1CA8 001:159 JLINK_IsHalted()  returns FALSE (0001ms, 0840ms total)
T1CA8 001:161 JLINK_IsHalted()  returns FALSE (0002ms, 0841ms total)
T1CA8 001:164 JLINK_IsHalted()  returns FALSE (0001ms, 0840ms total)
T1CA8 001:166 JLINK_IsHalted()  returns FALSE (0001ms, 0840ms total)
T1CA8 001:168 JLINK_IsHalted() -- CPU_ReadMem(2 bytes @ 0x20000000)  returns TRUE (0004ms, 0843ms total)
T1CA8 001:172 JLINK_ReadReg(R15 (PC))  returns 0x20000000 (0000ms, 0839ms total)
T1CA8 001:172 JLINK_ClrBPEx(BPHandle = 0x0000000D)  returns 0x00 (0000ms, 0839ms total)
T1CA8 001:172 JLINK_ReadReg(R0)  returns 0x00000000 (0000ms, 0839ms total)
T1CA8 001:173 JLINK_WriteReg(R0, 0x08001800)  returns 0x00 (0000ms, 0839ms total)
T1CA8 001:173 JLINK_WriteReg(R1, 0x00000400)  returns 0x00 (0000ms, 0839ms total)
T1CA8 001:173 JLINK_WriteReg(R2, 0x000000FF)  returns 0x00 (0000ms, 0839ms total)
T1CA8 001:173 JLINK_WriteReg(R3, 0x00000000)  returns 0x00 (0000ms, 0839ms total)
T1CA8 001:173 JLINK_WriteReg(R4, 0x00000000)  returns 0x00 (0000ms, 0839ms total)
T1CA8 001:173 JLINK_WriteReg(R5, 0x00000000)  returns 0x00 (0000ms, 0839ms total)
T1CA8 001:173 JLINK_WriteReg(R6, 0x00000000)  returns 0x00 (0000ms, 0839ms total)
T1CA8 001:173 JLINK_WriteReg(R7, 0x00000000)  returns 0x00 (0000ms, 0839ms total)
T1CA8 001:173 JLINK_WriteReg(R8, 0x00000000)  returns 0x00 (0000ms, 0839ms total)
T1CA8 001:173 JLINK_WriteReg(R9, 0x20000160)  returns 0x00 (0000ms, 0839ms total)
T1CA8 001:173 JLINK_WriteReg(R10, 0x00000000)  returns 0x00 (0000ms, 0839ms total)
T1CA8 001:173 JLINK_WriteReg(R11, 0x00000000)  returns 0x00 (0000ms, 0839ms total)
T1CA8 001:173 JLINK_WriteReg(R12, 0x00000000)  returns 0x00 (0000ms, 0839ms total)
T1CA8 001:173 JLINK_WriteReg(R13 (SP), 0x20001000)  returns 0x00 (0000ms, 0839ms total)
T1CA8 001:173 JLINK_WriteReg(R14, 0x20000001)  returns 0x00 (0000ms, 0839ms total)
T1CA8 001:173 JLINK_WriteReg(R15 (PC), 0x20000020)  returns 0x00 (0000ms, 0839ms total)
T1CA8 001:173 JLINK_WriteReg(XPSR, 0x01000000)  returns 0x00 (0000ms, 0839ms total)
T1CA8 001:173 JLINK_WriteReg(MSP, 0x20001000)  returns 0x00 (0000ms, 0839ms total)
T1CA8 001:173 JLINK_WriteReg(PSP, 0x20001000)  returns 0x00 (0000ms, 0839ms total)
T1CA8 001:173 JLINK_WriteReg(CFBP, 0x00000000)  returns 0x00 (0000ms, 0839ms total)
T1CA8 001:173 JLINK_SetBPEx(Addr = 0x20000000, Type = 0xFFFFFFF2)  returns 0x0000000E (0000ms, 0839ms total)
T1CA8 001:173 JLINK_Go() -- CPU_ReadMem(4 bytes @ 0xE0001000) (0007ms, 0846ms total)
T1CA8 001:180 JLINK_IsHalted() -- CPU_ReadMem(2 bytes @ 0x20000000)  returns TRUE (0006ms, 0852ms total)
T1CA8 001:186 JLINK_ReadReg(R15 (PC))  returns 0x20000000 (0000ms, 0846ms total)
T1CA8 001:186 JLINK_ClrBPEx(BPHandle = 0x0000000E)  returns 0x00 (0000ms, 0846ms total)
T1CA8 001:186 JLINK_ReadReg(R0)  returns 0x00000001 (0000ms, 0846ms total)
T1CA8 001:186 JLINK_WriteReg(R0, 0x08001800)  returns 0x00 (0000ms, 0846ms total)
T1CA8 001:186 JLINK_WriteReg(R1, 0x00000400)  returns 0x00 (0000ms, 0846ms total)
T1CA8 001:186 JLINK_WriteReg(R2, 0x000000FF)  returns 0x00 (0000ms, 0846ms total)
T1CA8 001:186 JLINK_WriteReg(R3, 0x00000000)  returns 0x00 (0000ms, 0846ms total)
T1CA8 001:186 JLINK_WriteReg(R4, 0x00000000)  returns 0x00 (0000ms, 0846ms total)
T1CA8 001:186 JLINK_WriteReg(R5, 0x00000000)  returns 0x00 (0000ms, 0846ms total)
T1CA8 001:186 JLINK_WriteReg(R6, 0x00000000)  returns 0x00 (0000ms, 0846ms total)
T1CA8 001:186 JLINK_WriteReg(R7, 0x00000000)  returns 0x00 (0000ms, 0846ms total)
T1CA8 001:186 JLINK_WriteReg(R8, 0x00000000)  returns 0x00 (0000ms, 0846ms total)
T1CA8 001:186 JLINK_WriteReg(R9, 0x20000160)  returns 0x00 (0000ms, 0846ms total)
T1CA8 001:186 JLINK_WriteReg(R10, 0x00000000)  returns 0x00 (0000ms, 0846ms total)
T1CA8 001:186 JLINK_WriteReg(R11, 0x00000000)  returns 0x00 (0000ms, 0846ms total)
T1CA8 001:186 JLINK_WriteReg(R12, 0x00000000)  returns 0x00 (0000ms, 0846ms total)
T1CA8 001:186 JLINK_WriteReg(R13 (SP), 0x20001000)  returns 0x00 (0000ms, 0846ms total)
T1CA8 001:186 JLINK_WriteReg(R14, 0x20000001)  returns 0x00 (0000ms, 0846ms total)
T1CA8 001:186 JLINK_WriteReg(R15 (PC), 0x200000B6)  returns 0x00 (0000ms, 0846ms total)
T1CA8 001:186 JLINK_WriteReg(XPSR, 0x01000000)  returns 0x00 (0000ms, 0846ms total)
T1CA8 001:186 JLINK_WriteReg(MSP, 0x20001000)  returns 0x00 (0000ms, 0846ms total)
T1CA8 001:186 JLINK_WriteReg(PSP, 0x20001000)  returns 0x00 (0000ms, 0846ms total)
T1CA8 001:186 JLINK_WriteReg(CFBP, 0x00000000)  returns 0x00 (0000ms, 0846ms total)
T1CA8 001:186 JLINK_SetBPEx(Addr = 0x20000000, Type = 0xFFFFFFF2)  returns 0x0000000F (0000ms, 0846ms total)
T1CA8 001:186 JLINK_Go() -- CPU_ReadMem(4 bytes @ 0xE0001000) (0004ms, 0850ms total)
T1CA8 001:190 JLINK_IsHalted()  returns FALSE (0001ms, 0851ms total)
T1CA8 001:192 JLINK_IsHalted()  returns FALSE (0002ms, 0852ms total)
T1CA8 001:195 JLINK_IsHalted()  returns FALSE (0001ms, 0851ms total)
T1CA8 001:197 JLINK_IsHalted()  returns FALSE (0002ms, 0852ms total)
T1CA8 001:238 JLINK_IsHalted() -- CPU_ReadMem(2 bytes @ 0x20000000)  returns TRUE (0005ms, 0855ms total)
T1CA8 001:243 JLINK_ReadReg(R15 (PC))  returns 0x20000000 (0000ms, 0850ms total)
T1CA8 001:243 JLINK_ClrBPEx(BPHandle = 0x0000000F)  returns 0x00 (0000ms, 0850ms total)
T1CA8 001:243 JLINK_ReadReg(R0)  returns 0x00000000 (0000ms, 0850ms total)
T1CA8 001:244 JLINK_WriteReg(R0, 0x08001C00)  returns 0x00 (0000ms, 0850ms total)
T1CA8 001:244 JLINK_WriteReg(R1, 0x00000400)  returns 0x00 (0000ms, 0850ms total)
T1CA8 001:244 JLINK_WriteReg(R2, 0x000000FF)  returns 0x00 (0000ms, 0850ms total)
T1CA8 001:244 JLINK_WriteReg(R3, 0x00000000)  returns 0x00 (0000ms, 0850ms total)
T1CA8 001:244 JLINK_WriteReg(R4, 0x00000000)  returns 0x00 (0000ms, 0850ms total)
T1CA8 001:244 JLINK_WriteReg(R5, 0x00000000)  returns 0x00 (0000ms, 0850ms total)
T1CA8 001:244 JLINK_WriteReg(R6, 0x00000000)  returns 0x00 (0000ms, 0850ms total)
T1CA8 001:244 JLINK_WriteReg(R7, 0x00000000)  returns 0x00 (0000ms, 0850ms total)
T1CA8 001:244 JLINK_WriteReg(R8, 0x00000000)  returns 0x00 (0000ms, 0850ms total)
T1CA8 001:244 JLINK_WriteReg(R9, 0x20000160)  returns 0x00 (0000ms, 0850ms total)
T1CA8 001:244 JLINK_WriteReg(R10, 0x00000000)  returns 0x00 (0000ms, 0850ms total)
T1CA8 001:244 JLINK_WriteReg(R11, 0x00000000)  returns 0x00 (0000ms, 0850ms total)
T1CA8 001:244 JLINK_WriteReg(R12, 0x00000000)  returns 0x00 (0000ms, 0850ms total)
T1CA8 001:244 JLINK_WriteReg(R13 (SP), 0x20001000)  returns 0x00 (0000ms, 0850ms total)
T1CA8 001:244 JLINK_WriteReg(R14, 0x20000001)  returns 0x00 (0000ms, 0850ms total)
T1CA8 001:244 JLINK_WriteReg(R15 (PC), 0x20000020)  returns 0x00 (0000ms, 0850ms total)
T1CA8 001:244 JLINK_WriteReg(XPSR, 0x01000000)  returns 0x00 (0000ms, 0850ms total)
T1CA8 001:244 JLINK_WriteReg(MSP, 0x20001000)  returns 0x00 (0000ms, 0850ms total)
T1CA8 001:244 JLINK_WriteReg(PSP, 0x20001000)  returns 0x00 (0000ms, 0850ms total)
T1CA8 001:244 JLINK_WriteReg(CFBP, 0x00000000)  returns 0x00 (0000ms, 0850ms total)
T1CA8 001:244 JLINK_SetBPEx(Addr = 0x20000000, Type = 0xFFFFFFF2)  returns 0x00000010 (0000ms, 0850ms total)
T1CA8 001:244 JLINK_Go() -- CPU_ReadMem(4 bytes @ 0xE0001000) (0003ms, 0853ms total)
T1CA8 001:247 JLINK_IsHalted() -- CPU_ReadMem(2 bytes @ 0x20000000)  returns TRUE (0006ms, 0859ms total)
T1CA8 001:253 JLINK_ReadReg(R15 (PC))  returns 0x20000000 (0000ms, 0853ms total)
T1CA8 001:253 JLINK_ClrBPEx(BPHandle = 0x00000010)  returns 0x00 (0000ms, 0853ms total)
T1CA8 001:253 JLINK_ReadReg(R0)  returns 0x00000001 (0000ms, 0853ms total)
T1CA8 001:253 JLINK_WriteReg(R0, 0x08001C00)  returns 0x00 (0000ms, 0853ms total)
T1CA8 001:253 JLINK_WriteReg(R1, 0x00000400)  returns 0x00 (0000ms, 0853ms total)
T1CA8 001:253 JLINK_WriteReg(R2, 0x000000FF)  returns 0x00 (0000ms, 0853ms total)
T1CA8 001:253 JLINK_WriteReg(R3, 0x00000000)  returns 0x00 (0000ms, 0853ms total)
T1CA8 001:253 JLINK_WriteReg(R4, 0x00000000)  returns 0x00 (0000ms, 0853ms total)
T1CA8 001:253 JLINK_WriteReg(R5, 0x00000000)  returns 0x00 (0000ms, 0853ms total)
T1CA8 001:253 JLINK_WriteReg(R6, 0x00000000)  returns 0x00 (0000ms, 0853ms total)
T1CA8 001:253 JLINK_WriteReg(R7, 0x00000000)  returns 0x00 (0000ms, 0853ms total)
T1CA8 001:253 JLINK_WriteReg(R8, 0x00000000)  returns 0x00 (0000ms, 0853ms total)
T1CA8 001:253 JLINK_WriteReg(R9, 0x20000160)  returns 0x00 (0000ms, 0853ms total)
T1CA8 001:253 JLINK_WriteReg(R10, 0x00000000)  returns 0x00 (0000ms, 0853ms total)
T1CA8 001:253 JLINK_WriteReg(R11, 0x00000000)  returns 0x00 (0000ms, 0853ms total)
T1CA8 001:253 JLINK_WriteReg(R12, 0x00000000)  returns 0x00 (0000ms, 0853ms total)
T1CA8 001:253 JLINK_WriteReg(R13 (SP), 0x20001000)  returns 0x00 (0000ms, 0853ms total)
T1CA8 001:253 JLINK_WriteReg(R14, 0x20000001)  returns 0x00 (0000ms, 0853ms total)
T1CA8 001:253 JLINK_WriteReg(R15 (PC), 0x200000B6)  returns 0x00 (0000ms, 0853ms total)
T1CA8 001:253 JLINK_WriteReg(XPSR, 0x01000000)  returns 0x00 (0000ms, 0853ms total)
T1CA8 001:253 JLINK_WriteReg(MSP, 0x20001000)  returns 0x00 (0000ms, 0853ms total)
T1CA8 001:253 JLINK_WriteReg(PSP, 0x20001000)  returns 0x00 (0000ms, 0853ms total)
T1CA8 001:253 JLINK_WriteReg(CFBP, 0x00000000)  returns 0x00 (0000ms, 0853ms total)
T1CA8 001:253 JLINK_SetBPEx(Addr = 0x20000000, Type = 0xFFFFFFF2)  returns 0x00000011 (0000ms, 0853ms total)
T1CA8 001:253 JLINK_Go() -- CPU_ReadMem(4 bytes @ 0xE0001000) (0007ms, 0860ms total)
T1CA8 001:260 JLINK_IsHalted()  returns FALSE (0002ms, 0862ms total)
T1CA8 001:263 JLINK_IsHalted()  returns FALSE (0000ms, 0860ms total)
T1CA8 001:264 JLINK_IsHalted()  returns FALSE (0000ms, 0860ms total)
T1CA8 001:265 JLINK_IsHalted()  returns FALSE (0000ms, 0860ms total)
T1CA8 001:266 JLINK_IsHalted()  returns FALSE (0000ms, 0860ms total)
T1CA8 001:267 JLINK_IsHalted()  returns FALSE (0000ms, 0860ms total)
T1CA8 001:268 JLINK_IsHalted()  returns FALSE (0000ms, 0860ms total)
T1CA8 001:269 JLINK_IsHalted()  returns FALSE (0000ms, 0860ms total)
